
T1634 000:849 SEGGER J-Link V4.14a Log File (0002ms, 0846ms total)
T1634 000:849 DLL Compiled: Apr 21 2010 20:54:28 (0002ms, 0846ms total)
T1634 000:849 Logging started @ 2010-06-03 11:02 (0002ms, 0846ms total)
T1634 000:851 JLINK_SetWarnOutHandler(...) (0000ms, 0848ms total)
T1634 000:851 JLINK_OpenEx(...)
Firmware: J-Link ARM V8 compiled Dec  1 2009 11:42:48
Hardware: V8.00
S/N: 20100214
Feature(s): RDI,FlashDL,FlashBP,JFlash,GDBFull  returns O.K. (0140ms, 0848ms total)
T1634 000:992 JLINK_SetErrorOutHandler(...) (0000ms, 0988ms total)
T1634 000:992 JLINK_TIF_Select(JLINKARM_TIF_JTAG)  returns 0x00 (0000ms, 0988ms total)
T1634 000:992 JLINK_SetSpeed(3000) (0001ms, 0988ms total)
T1634 000:994 JLINK_GetHardwareVersion()  returns 0x13880 (0000ms, 0989ms total)
T1634 000:994 JLINK_GetDLLVersion()  returns 41401 (0000ms, 0989ms total)
T1634 000:994 JLINK_GetFirmwareString(...) (0000ms, 0989ms total)
T1634 000:994 JLINK_GetDLLVersion()  returns 41401 (0000ms, 0989ms total)
T1634 000:995 JLINK_GetCompileDateTime() (0000ms, 0989ms total)
T1634 000:995 JLINK_GetFirmwareString(...) (0000ms, 0989ms total)
T1634 000:996 JLINK_GetHardwareVersion()  returns 0x13880 (0000ms, 0989ms total)
T1634 000:997 JLINK_GetIdData(...) >0x2F8 JTAG>TotalIRLen = 9, IRPrint = 0x0011 >0x30 JTAG> >0x210 JTAG> >0x108 JTAG> >0x98 JTAG> >0x38 JTAG> >0xD8 JTAG> >0x98 JTAG> >0x288 JTAG> >0x258 JTAG> >0xF8 JTAG> >0xF8 JTAG>Found Cortex-M3 r1p1, Little endian. >0x98 JTAG> >0x198 JTAG> >0xF8 JTAG> >0xF8 JTAG>TPIU fitted. >0xF8 JTAG> >0xF8 JTAG>  FPUnit: 6 code (BP) slots and 2 literal slots >0xF8 JTAG> ScanLen=9 NumDevices=2 aId[0]=0x3BA00477 aIrRead[0]=0 aScanLen[0]=0 aScanRead[0]=0 (0045ms, 0989ms total)
T1634 001:043 JLINK_JTAG_GetDeviceID(DeviceIndex = 0)  returns 0x3BA00477 (0000ms, 1034ms total)
T1634 001:043 JLINK_JTAG_GetDeviceInfo(DeviceIndex = 0)  returns 0x00 (0000ms, 1034ms total)
T1634 001:043 JLINK_JTAG_GetDeviceID(DeviceIndex = 1)  returns 0x16410041 (0000ms, 1034ms total)
T1634 001:043 JLINK_JTAG_GetDeviceInfo(DeviceIndex = 1)  returns 0x00 (0000ms, 1034ms total)
T1634 001:043 JLINK_ReadMem (0xE00FF000, 0x0018 Bytes, ...) -- CPU is running >0x2E0 JTAG> -- Data:  03 F0 F0 FF 03 20 F0 FF 03 30 F0 FF 03 10 F0 FF ...  returns 0x00 (0004ms, 1034ms total)
T1634 001:047 JLINK_ReadMemU32(0xE000ED00, 0x0001 Items, ...) -- CPU is running >0x1A0 JTAG> -- Data:  31 C2 1F 41  returns 0x01 (0001ms, 1038ms total)
T1634 001:048 JLINK_Reset() >0x2F8 JTAG>TotalIRLen = 9, IRPrint = 0x0011 >0x30 JTAG> >0x210 JTAG> >0x108 JTAG> >0x98 JTAG> >0x38 JTAG> >0x108 JTAG> >0x98 JTAG> >0x288 JTAG> >0x258 JTAG> >0xF8 JTAG> >0xF8 JTAG>Found Cortex-M3 r1p1, Little endian. >0x98 JTAG> >0x198 JTAG> >0xF8 JTAG> >0xF8 JTAG>TPIU fitted. >0xF8 JTAG> >0xF8 JTAG>  FPUnit: 6 code (BP) slots and 2 literal slots >0xF8 JTAG> >0x1A8 JTAG> >0x198 JTAG> >0x1C8 JTAG> >0xF8 JTAG> >0xF8 JTAG> >0x198 JTAG> >0x198 JTAG> >0xF8 JTAG> >0xF8 JTAG>
 >0x10F0 JTAG> >0x1C8 JTAG> >0xF8 JTAG> >0x10F0 JTAG> >0x128 JTAG> (0094ms, 1039ms total)
T1634 001:142 JLINK_Halt()  returns 0x00 (0000ms, 1133ms total)
T1634 001:142 JLINK_IsHalted()  returns TRUE (0000ms, 1133ms total)
T1634 001:142 JLINK_ReadMemU32(0xE000EDF0, 0x0001 Items, ...) >0x1A0 JTAG> -- Data:  03 00 03 00  returns 0x01 (0001ms, 1133ms total)
T1634 001:143 JLINK_WriteU32(0xE000EDF0, 0xA05F0003) >0x198 JTAG>  returns 0x00 (0002ms, 1134ms total)
T1634 001:145 JLINK_WriteU32(0xE000EDFC, 0x01000000) >0x198 JTAG>  returns 0x00 (0001ms, 1136ms total)
T1634 001:146 JLINK_ReadMemU32(0xE0002000, 0x0001 Items, ...) >0x1A0 JTAG> -- Data:  60 02 00 00  returns 0x01 (0004ms, 1137ms total)
T1634 001:150 JLINK_ReadMemU32(0xE0001000, 0x0001 Items, ...) >0x1A0 JTAG> -- Data:  01 00 00 40  returns 0x01 (0002ms, 1141ms total)

                JLINK_AddMirrorAreaEx(Addr = 0x00000000, Size = 0x00000000) (0000ms, 0000ms total)
              JLINK_GetHWStatus(...)  returns 0x00 (0001ms, 1144ms total)
T1634 001:154 JLINK_GetNumBPUnits(Type = 0xFFFFFF00) >0x2F8 JTAG>TotalIRLen = 9, IRPrint = 0x0011 >0x30 JTAG> >0x210 JTAG> >0x108 JTAG> >0x98 JTAG> >0x38 JTAG> >0xD8 JTAG> >0x98 JTAG> >0x288 JTAG> >0x258 JTAG> >0xF8 JTAG> >0xF8 JTAG>Found Cortex-M3 r1p1, Little endian. >0x98 JTAG> >0x198 JTAG> >0xF8 JTAG> >0xF8 JTAG>TPIU fitted. >0xF8 JTAG> >0xF8 JTAG>  FPUnit: 6 code (BP) slots and 2 literal slots >0xF8 JTAG>  returns 0x06 (0037ms, 1145ms total)
T1634 001:191 JLINK_GetNumBPUnits(Type = 0xF0)  returns 0x800 (0000ms, 1182ms total)
T1634 001:191 JLINK_GetNumWPUnits()  returns 0x04 (0000ms, 1182ms total)
T1634 001:192 JLINK_GetSpeed()  returns 0xBB8 (0000ms, 1182ms total)
T1634 001:192 JLINK_ReadMemU32(0xE000E004, 0x0001 Items, ...) >0x1B0 JTAG> -- Data:  01 00 00 00  returns 0x01 (0002ms, 1182ms total)
T1634 001:194 JLINK_WriteMem(0xE0001000, 0x001C Bytes, ...) -- Data:  01 00 00 00 00 00 00 00 00 00 00 00 00 00 00 00 ... >0x2B8 JTAG>  returns 0x1C (0004ms, 1184ms total)
T1634 001:198 JLINK_ReadMem (0xE0001000, 0x001C Bytes, ...) >0x308 JTAG> -- Data:  01 00 00 40 00 00 00 00 00 00 00 00 00 00 00 00 ...  returns 0x00 (0002ms, 1188ms total)
T1634 001:200 JLINK_ReadReg(R15)  returns 0x08000100 (0000ms, 1190ms total)
T1634 001:200 JLINK_ReadReg(XPSR)  returns 0x01000000 (0000ms, 1190ms total)
T1634 001:200 JLINK_SetResetType(JLINKARM_RESET_TYPE_NORMAL)  returns JLINKARM_RESET_TYPE_NORMAL (0000ms, 1190ms total)
T1634 001:200 JLINK_Reset() >0x2F8 JTAG>TotalIRLen = 9, IRPrint = 0x0011 >0x30 JTAG> >0x210 JTAG> >0x108 JTAG> >0x98 JTAG> >0x38 JTAG> >0x108 JTAG> >0x98 JTAG> >0x288 JTAG> >0x258 JTAG> >0xF8 JTAG> >0xF8 JTAG>Found Cortex-M3 r1p1, Little endian. >0x98 JTAG> >0x198 JTAG> >0xF8 JTAG> >0xF8 JTAG>TPIU fitted. >0xF8 JTAG> >0xF8 JTAG>  FPUnit: 6 code (BP) slots and 2 literal slots >0xF8 JTAG> >0x1A8 JTAG> >0x198 JTAG> >0x1C8 JTAG> >0xF8 JTAG> >0xF8 JTAG> >0x198 JTAG> >0x198 JTAG> >0xF8 JTAG> >0xF8 JTAG>
 >0x198 JTAG> >0xF8 JTAG> >0x10F0 JTAG> >0x128 JTAG> (0100ms, 1190ms total)
T1634 001:300 JLINK_ReadReg(R15)  returns 0x08000100 (0000ms, 1290ms total)
T1634 001:300 JLINK_ReadReg(XPSR)  returns 0x01000000 (0000ms, 1290ms total)
T1634 008:150 JLINK_SetResetType(JLINKARM_RESET_TYPE_NORMAL)  returns JLINKARM_RESET_TYPE_NORMAL (0000ms, 1290ms total)
T1634 008:150 JLINK_Reset() >0x2F8 JTAG>TotalIRLen = 9, IRPrint = 0x0011 >0x30 JTAG> >0x210 JTAG> >0x108 JTAG> >0x98 JTAG> >0x38 JTAG> >0x108 JTAG> >0x98 JTAG> >0x288 JTAG> >0x258 JTAG> >0xF8 JTAG> >0xF8 JTAG>Found Cortex-M3 r1p1, Little endian. >0x98 JTAG> >0x198 JTAG> >0xF8 JTAG> >0xF8 JTAG>TPIU fitted. >0xF8 JTAG> >0xF8 JTAG>  FPUnit: 6 code (BP) slots and 2 literal slots >0xF8 JTAG> >0x1A8 JTAG> >0x198 JTAG> >0x1C8 JTAG> >0xF8 JTAG> >0xF8 JTAG> >0x198 JTAG> >0x198 JTAG> >0xF8 JTAG> >0xF8 JTAG>
 >0x198 JTAG> >0xF8 JTAG> >0x10F0 JTAG> >0x128 JTAG> (0072ms, 1290ms total)
T1634 008:223 JLINK_ReadReg(R15)  returns 0x08000100 (0014ms, 1363ms total)
T1634 008:237 JLINK_ReadReg(XPSR)  returns 0x01000000 (0000ms, 1377ms total)
T1634 008:237 JLINK_ReadReg(R0)  returns 0x00000000 (0000ms, 1377ms total)
T1634 008:237 JLINK_ReadReg(R1)  returns 0x00017A29 (0000ms, 1377ms total)
T1634 008:237 JLINK_ReadReg(R2)  returns 0x02020202 (0000ms, 1377ms total)
T1634 008:237 JLINK_ReadReg(R3)  returns 0x03030303 (0000ms, 1377ms total)
T1634 008:238 JLINK_ReadReg(R4)  returns 0x20000010 (0000ms, 1378ms total)
T1634 008:238 JLINK_ReadReg(R5)  returns 0x05050505 (0000ms, 1378ms total)
T1634 008:238 JLINK_ReadReg(R6)  returns 0x06060606 (0000ms, 1378ms total)
T1634 008:238 JLINK_ReadReg(R7)  returns 0x07070707 (0000ms, 1378ms total)
T1634 008:238 JLINK_ReadReg(R8)  returns 0x08080808 (0000ms, 1378ms total)
T1634 008:238 JLINK_ReadReg(R9)  returns 0x09090909 (0000ms, 1378ms total)
T1634 008:238 JLINK_ReadReg(R10)  returns 0x10101010 (0000ms, 1378ms total)
T1634 008:238 JLINK_ReadReg(R11)  returns 0x11111111 (0000ms, 1378ms total)
T1634 008:238 JLINK_ReadReg(R12)  returns 0x12121212 (0000ms, 1378ms total)
T1634 008:238 JLINK_ReadReg(R13)  returns 0x200042F0 (0000ms, 1378ms total)
T1634 008:238 JLINK_ReadReg(R14)  returns 0xFFFFFFFF (0000ms, 1378ms total)
T1634 008:238 JLINK_ReadReg(R15)  returns 0x08000100 (0000ms, 1378ms total)
T1634 008:238 JLINK_ReadReg(XPSR)  returns 0x01000000 (0000ms, 1378ms total)
T1634 008:238 JLINK_ReadReg(MSP)  returns 0x200042F0 (0000ms, 1378ms total)
T1634 008:238 JLINK_ReadReg(PSP)  returns 0x20001278 (0000ms, 1378ms total)
T1634 008:238 JLINK_ReadReg(CFBP)  returns 0x00000000 (0000ms, 1378ms total)
T1634 008:238 JLINK_ReadMem (0x08000100, 0x003C Bytes, ...) >0x528 JTAG> -- Updating C cache (64 bytes @ 0x08000100) -- Read from C cache (60 bytes @ 0x08000100) -- Data:  04 48 00 47 FE E7 FE E7 FE E7 FE E7 FE E7 FE E7 ...  returns 0x00 (0003ms, 1378ms total)
T1634 008:281 JLINK_ReadMem (0x40010C00, 0x0004 Bytes, ...) >0x1A0 JTAG> -- Data:  44 44 48 44  returns 0x00 (0002ms, 1381ms total)
T1634 008:283 JLINK_ReadMem (0x40010C04, 0x0004 Bytes, ...) >0x1A0 JTAG> -- Data:  44 44 44 44  returns 0x00 (0002ms, 1383ms total)
T1634 008:285 JLINK_ReadMem (0x40010C08, 0x0004 Bytes, ...) >0x1A0 JTAG> -- Data:  00 00 00 00  returns 0x00 (0001ms, 1385ms total)
T1634 008:286 JLINK_ReadMem (0x40010C0C, 0x0004 Bytes, ...) >0x1A0 JTAG> -- Data:  10 00 00 00  returns 0x00 (0002ms, 1386ms total)
T1634 008:288 JLINK_ReadMem (0x40010C10, 0x0004 Bytes, ...) >0x1A0 JTAG> -- Data:  00 00 00 00  returns 0x00 (0001ms, 1388ms total)
T1634 008:289 JLINK_ReadMem (0x40010C14, 0x0004 Bytes, ...) >0x1A0 JTAG> -- Data:  00 00 00 00  returns 0x00 (0002ms, 1389ms total)
T1634 008:291 JLINK_ReadMem (0x40010C18, 0x0004 Bytes, ...) >0x1A0 JTAG> -- Data:  00 00 00 00  returns 0x00 (0001ms, 1391ms total)
T1634 008:294 JLINK_ReadMem (0x40021018, 0x0004 Bytes, ...) >0x1A0 JTAG> -- Data:  00 00 00 00  returns 0x00 (0002ms, 1392ms total)
T1634 008:296 JLINK_ReadMem (0x4002100C, 0x0004 Bytes, ...) >0x1A0 JTAG> -- Data:  00 00 00 00  returns 0x00 (0001ms, 1394ms total)
T1634 008:342 JLINK_ReadMem (0x40011000, 0x0004 Bytes, ...) >0x1A0 JTAG> -- Data:  44 44 44 44  returns 0x00 (0002ms, 1395ms total)
T1634 008:344 JLINK_ReadMem (0x40011004, 0x0004 Bytes, ...) >0x1A0 JTAG> -- Data:  44 44 44 44  returns 0x00 (0002ms, 1397ms total)
T1634 008:346 JLINK_ReadMem (0x40011008, 0x0004 Bytes, ...) >0x1A0 JTAG> -- Data:  00 00 00 00  returns 0x00 (0001ms, 1399ms total)
T1634 008:347 JLINK_ReadMem (0x4001100C, 0x0004 Bytes, ...) >0x1A0 JTAG> -- Data:  00 00 00 00  returns 0x00 (0002ms, 1400ms total)
T1634 008:349 JLINK_ReadMem (0x40011010, 0x0004 Bytes, ...) >0x1A0 JTAG> -- Data:  00 00 00 00  returns 0x00 (0001ms, 1402ms total)
T1634 008:350 JLINK_ReadMem (0x40011014, 0x0004 Bytes, ...) >0x1A0 JTAG> -- Data:  00 00 00 00  returns 0x00 (0002ms, 1403ms total)
T1634 008:352 JLINK_ReadMem (0x40011018, 0x0004 Bytes, ...) >0x1A0 JTAG> -- Data:  00 00 00 00  returns 0x00 (0001ms, 1405ms total)
T1634 008:355 JLINK_ReadMem (0x40021018, 0x0004 Bytes, ...) >0x1A0 JTAG> -- Data:  00 00 00 00  returns 0x00 (0001ms, 1406ms total)
T1634 008:356 JLINK_ReadMem (0x4002100C, 0x0004 Bytes, ...) >0x1A0 JTAG> -- Data:  00 00 00 00  returns 0x00 (0004ms, 1407ms total)
T1634 008:704 JLINK_ReadMem (0x00000000, 0x00E4 Bytes, ...)
                JLINK_ReadMemHW(0x00000000, 0x0004 Bytes, ...) >0x1A0 JTAG> -- Data:  F0 42 00 20  returns 0x00 (0002ms, 0000ms total)
                JLINK_ReadMemHW(0x08000000, 0x0004 Bytes, ...) >0x1A0 JTAG> -- Data:  F0 42 00 20  returns 0x00 (0001ms, 0002ms total)
                JLINK_WriteMemHW(0x00000000, 0x0004 Bytes, ...) -- Data:  01 00 01 00 >0x198 JTAG>  returns 0xFFFFFFFF (0004ms, 0003ms total)
                JLINK_ReadMemHW(0x00000000, 0x0004 Bytes, ...) >0x1A0 JTAG> -- Data:  F0 42 00 20  returns 0x00 (0001ms, 0007ms total)
               -- MA0 is in flash -- Unmirror addr 0x00000000 >0x1068 JTAG> -- Updating C cache (256 bytes @ 0x08000000) -- Read from C cache (228 bytes @ 0x08000000) -- Data:  F0 42 00 20 01 01 00 08 05 01 00 08 07 01 00 08 ...  returns 0x00 (0013ms, 1411ms total)
T1634 008:866 JLINK_ReadMemU32(0xE0001004, 0x0001 Items, ...) >0x1A0 JTAG> -- Data:  01 00 00 40  returns 0x01 (0004ms, 1424ms total)
T1634 009:315 JLINK_ReadMemU32(0xE0001004, 0x0001 Items, ...) >0x1A0 JTAG> -- Data:  01 00 00 40  returns 0x01 (0003ms, 1428ms total)
T0CA0 009:559 JLINK_SetBPEx(Addr = 0x080002F2, Type = 0xFFFFFFF2)  returns 0x00000001 (0000ms, 1431ms total)
T0CA0 009:561 JLINK_SetBPEx(Addr = 0x0800468A, Type = 0xFFFFFFF2)  returns 0x00000002 (0000ms, 1431ms total)
T0CA0 009:561 JLINK_Go() >0xF8 JTAG> >0x198 JTAG> >0x198 JTAG> >0x198 JTAG> >0x198 JTAG> >0x198 JTAG> >0x198 JTAG> >0x198 JTAG> -- Invalidate MA0 status >0x198 JTAG> >0x198 JTAG> (0100ms, 1431ms total)
T0CA0 009:765 JLINK_IsHalted() >0xF8 JTAG> >0x10F0 JTAG>  returns TRUE (0006ms, 1531ms total)
T0CA0 009:771 JLINK_Halt()  returns 0x00 (0000ms, 1531ms total)
T0CA0 009:771 JLINK_IsHalted()  returns TRUE (0000ms, 1531ms total)
T0CA0 009:771 JLINK_ReadReg(R15)  returns 0x080002F2 (0000ms, 1531ms total)
T0CA0 009:771 JLINK_ReadReg(XPSR)  returns 0x61000000 (0000ms, 1531ms total)
T0CA0 009:771 JLINK_IsHalted()  returns TRUE (0000ms, 1531ms total)
T0CA0 009:771 JLINK_IsHalted()  returns TRUE (0000ms, 1531ms total)
T0CA0 009:771 JLINK_ReadReg(R15)  returns 0x080002F2 (0000ms, 1531ms total)
T0CA0 009:771 JLINK_ReadReg(XPSR)  returns 0x61000000 (0000ms, 1531ms total)
T0CA0 009:771 JLINK_ClrBPEx(BPHandle = 0x00000001)  returns 0x00 (0000ms, 1531ms total)
T0CA0 009:772 JLINK_ClrBPEx(BPHandle = 0x00000002)  returns 0x00 (0000ms, 1531ms total)
T0CA0 009:772 JLINK_ReadMemU32(0xE000ED30, 0x0001 Items, ...) >0x1D0 JTAG> -- Data:  0B 00 00 00  returns 0x01 (0001ms, 1531ms total)
T0CA0 009:773 JLINK_ReadMemU32(0xE0001028, 0x0001 Items, ...) >0x1A0 JTAG> -- Data:  01 00 00 40  returns 0x01 (0002ms, 1532ms total)
T0CA0 009:775 JLINK_ReadMemU32(0xE0001038, 0x0001 Items, ...) >0x1A0 JTAG> -- Data:  01 00 00 40  returns 0x01 (0001ms, 1534ms total)
T0CA0 009:776 JLINK_ReadMemU32(0xE0001048, 0x0001 Items, ...) >0x1A0 JTAG> -- Data:  01 00 00 40  returns 0x01 (0002ms, 1535ms total)
T0CA0 009:778 JLINK_ReadMemU32(0xE0001058, 0x0001 Items, ...) >0x1A0 JTAG> -- Data:  01 00 00 40  returns 0x01 (0002ms, 1537ms total)
T0CA0 009:780 JLINK_ReadReg(R0)  returns 0x20003EF0 (0000ms, 1539ms total)
T0CA0 009:780 JLINK_ReadReg(R1)  returns 0x200040F0 (0000ms, 1539ms total)
T0CA0 009:780 JLINK_ReadReg(R2)  returns 0x200040F0 (0000ms, 1539ms total)
T0CA0 009:780 JLINK_ReadReg(R3)  returns 0x200040F0 (0000ms, 1539ms total)
T0CA0 009:780 JLINK_ReadReg(R4)  returns 0x00000000 (0000ms, 1539ms total)
T0CA0 009:780 JLINK_ReadReg(R5)  returns 0x20003E8C (0000ms, 1539ms total)
T0CA0 009:780 JLINK_ReadReg(R6)  returns 0x00000000 (0000ms, 1539ms total)
T0CA0 009:780 JLINK_ReadReg(R7)  returns 0x00000000 (0000ms, 1539ms total)
T0CA0 009:780 JLINK_ReadReg(R8)  returns 0x00000000 (0000ms, 1539ms total)
T0CA0 009:780 JLINK_ReadReg(R9)  returns 0x09090909 (0000ms, 1539ms total)
T0CA0 009:780 JLINK_ReadReg(R10)  returns 0x0801FF34 (0000ms, 1539ms total)
T0CA0 009:780 JLINK_ReadReg(R11)  returns 0x00000000 (0000ms, 1539ms total)
T0CA0 009:780 JLINK_ReadReg(R12)  returns 0x20003ECC (0001ms, 1539ms total)
T0CA0 009:781 JLINK_ReadReg(R13)  returns 0x200042F0 (0000ms, 1540ms total)
T0CA0 009:781 JLINK_ReadReg(R14)  returns 0x080001EB (0000ms, 1540ms total)
T0CA0 009:781 JLINK_ReadReg(R15)  returns 0x080002F2 (0000ms, 1540ms total)
T0CA0 009:781 JLINK_ReadReg(XPSR)  returns 0x61000000 (0000ms, 1540ms total)
T0CA0 009:781 JLINK_ReadReg(MSP)  returns 0x200042F0 (0000ms, 1540ms total)
T0CA0 009:781 JLINK_ReadReg(PSP)  returns 0x20001278 (0000ms, 1540ms total)
T0CA0 009:781 JLINK_ReadReg(CFBP)  returns 0x00000000 (0000ms, 1540ms total)
T1634 009:781 JLINK_ReadMemU32(0xE0001004, 0x0001 Items, ...) >0x1A0 JTAG> -- Data:  01 00 00 40  returns 0x01 (0002ms, 1540ms total)
T1634 009:783 JLINK_ReadMem (0x40010C00, 0x0004 Bytes, ...) >0x1A0 JTAG> -- Data:  44 44 48 44  returns 0x00 (0002ms, 1542ms total)
T1634 009:785 JLINK_ReadMem (0x40010C04, 0x0004 Bytes, ...) >0x1A0 JTAG> -- Data:  44 44 44 44  returns 0x00 (0002ms, 1544ms total)
T1634 009:787 JLINK_ReadMem (0x40010C08, 0x0004 Bytes, ...) >0x1A0 JTAG> -- Data:  00 00 00 00  returns 0x00 (0001ms, 1546ms total)
T1634 009:788 JLINK_ReadMem (0x40010C0C, 0x0004 Bytes, ...) >0x1A0 JTAG> -- Data:  10 00 00 00  returns 0x00 (0002ms, 1547ms total)
T1634 009:790 JLINK_ReadMem (0x40010C10, 0x0004 Bytes, ...) >0x1A0 JTAG> -- Data:  00 00 00 00  returns 0x00 (0001ms, 1549ms total)
T1634 009:791 JLINK_ReadMem (0x40010C14, 0x0004 Bytes, ...) >0x1A0 JTAG> -- Data:  00 00 00 00  returns 0x00 (0002ms, 1550ms total)
T1634 009:793 JLINK_ReadMem (0x40010C18, 0x0004 Bytes, ...) >0x1A0 JTAG> -- Data:  00 00 00 00  returns 0x00 (0001ms, 1552ms total)
T1634 009:794 JLINK_ReadMem (0x40021018, 0x0004 Bytes, ...) >0x1A0 JTAG> -- Data:  00 00 00 00  returns 0x00 (0002ms, 1553ms total)
T1634 009:796 JLINK_ReadMem (0x4002100C, 0x0004 Bytes, ...) >0x1A0 JTAG> -- Data:  00 00 00 00  returns 0x00 (0001ms, 1555ms total)
T1634 009:798 JLINK_ReadMem (0x40011000, 0x0004 Bytes, ...) >0x1A0 JTAG> -- Data:  44 44 44 44  returns 0x00 (0001ms, 1556ms total)
T1634 009:799 JLINK_ReadMem (0x40011004, 0x0004 Bytes, ...) >0x1A0 JTAG> -- Data:  44 44 44 44  returns 0x00 (0002ms, 1557ms total)
T1634 009:801 JLINK_ReadMem (0x40011008, 0x0004 Bytes, ...) >0x1A0 JTAG> -- Data:  00 00 00 00  returns 0x00 (0002ms, 1559ms total)
T1634 009:803 JLINK_ReadMem (0x4001100C, 0x0004 Bytes, ...) >0x1A0 JTAG> -- Data:  00 00 00 00  returns 0x00 (0001ms, 1561ms total)
T1634 009:804 JLINK_ReadMem (0x40011010, 0x0004 Bytes, ...) >0x1A0 JTAG> -- Data:  00 00 00 00  returns 0x00 (0004ms, 1562ms total)
T1634 009:808 JLINK_ReadMem (0x40011014, 0x0004 Bytes, ...) >0x1A0 JTAG> -- Data:  00 00 00 00  returns 0x00 (0002ms, 1566ms total)
T1634 009:810 JLINK_ReadMem (0x40011018, 0x0004 Bytes, ...) >0x1A0 JTAG> -- Data:  00 00 00 00  returns 0x00 (0001ms, 1568ms total)
T1634 009:811 JLINK_ReadMem (0x40021018, 0x0004 Bytes, ...) >0x1A0 JTAG> -- Data:  00 00 00 00  returns 0x00 (0002ms, 1569ms total)
T1634 009:813 JLINK_ReadMem (0x4002100C, 0x0004 Bytes, ...) >0x1A0 JTAG> -- Data:  00 00 00 00  returns 0x00 (0001ms, 1571ms total)
T1634 010:041 JLINK_ReadMem (0x080002F2, 0x0002 Bytes, ...) >0x528 JTAG> -- Updating C cache (64 bytes @ 0x080002C0) -- Read from C cache (2 bytes @ 0x080002F2) -- Data:  00 B5  returns 0x00 (0002ms, 1572ms total)
T1634 010:043 JLINK_ReadMem (0x080002F4, 0x003C Bytes, ...) >0x528 JTAG> -- Updating C cache (64 bytes @ 0x08000300) -- Read from C cache (60 bytes @ 0x080002F4) -- Data:  87 B0 00 21 4F F0 00 60 00 F0 A3 FC 01 F0 52 FC ...  returns 0x00 (0003ms, 1574ms total)
T0CA0 022:012 JLINK_SetBPEx(Addr = 0x0800468A, Type = 0xFFFFFFF2)  returns 0x00000003 (0001ms, 1577ms total)
T0CA0 022:013 JLINK_Go() >0xF8 JTAG> >0x198 JTAG> >0x198 JTAG> >0x198 JTAG> >0x198 JTAG> >0x198 JTAG> >0x198 JTAG> >0x198 JTAG> >0x198 JTAG> >0x198 JTAG> >0x198 JTAG> (0019ms, 1578ms total)
T0CA0 022:132 JLINK_IsHalted() >0xF8 JTAG>  returns FALSE (0001ms, 1597ms total)
T0CA0 022:233 JLINK_IsHalted() >0xF8 JTAG> >0x10F0 JTAG>  returns TRUE (0005ms, 1597ms total)
T0CA0 022:238 JLINK_Halt()  returns 0x00 (0000ms, 1597ms total)
T0CA0 022:239 JLINK_IsHalted()  returns TRUE (0000ms, 1597ms total)
T0CA0 022:239 JLINK_ReadReg(R15)  returns 0x0800468A (0000ms, 1597ms total)
T0CA0 022:239 JLINK_ReadReg(XPSR)  returns 0x01000000 (0000ms, 1597ms total)
T0CA0 022:239 JLINK_IsHalted()  returns TRUE (0000ms, 1597ms total)
T0CA0 022:239 JLINK_IsHalted()  returns TRUE (0000ms, 1597ms total)
T0CA0 022:239 JLINK_ReadReg(R15)  returns 0x0800468A (0000ms, 1597ms total)
T0CA0 022:239 JLINK_ReadReg(XPSR)  returns 0x01000000 (0000ms, 1597ms total)
T0CA0 022:239 JLINK_ClrBPEx(BPHandle = 0x00000003)  returns 0x00 (0000ms, 1597ms total)
T0CA0 022:239 JLINK_ReadMemU32(0xE000ED30, 0x0001 Items, ...) >0x1D0 JTAG> -- Data:  0B 00 00 00  returns 0x01 (0001ms, 1597ms total)
T0CA0 022:240 JLINK_ReadMemU32(0xE0001028, 0x0001 Items, ...) >0x1A0 JTAG> -- Data:  01 00 00 40  returns 0x01 (0002ms, 1598ms total)
T0CA0 022:242 JLINK_ReadMemU32(0xE0001038, 0x0001 Items, ...) >0x1A0 JTAG> -- Data:  01 00 00 40  returns 0x01 (0002ms, 1600ms total)
T0CA0 022:244 JLINK_ReadMemU32(0xE0001048, 0x0001 Items, ...) >0x1A0 JTAG> -- Data:  01 00 00 40  returns 0x01 (0001ms, 1602ms total)
T0CA0 022:245 JLINK_ReadMemU32(0xE0001058, 0x0001 Items, ...) >0x1A0 JTAG> -- Data:  01 00 00 40  returns 0x01 (0002ms, 1603ms total)
T0CA0 022:247 JLINK_ReadReg(R0)  returns 0x00000000 (0000ms, 1605ms total)
T0CA0 022:247 JLINK_ReadReg(R1)  returns 0x20000080 (0000ms, 1605ms total)
T0CA0 022:247 JLINK_ReadReg(R2)  returns 0x40011000 (0000ms, 1605ms total)
T0CA0 022:247 JLINK_ReadReg(R3)  returns 0x33333333 (0000ms, 1605ms total)
T0CA0 022:247 JLINK_ReadReg(R4)  returns 0x0000C350 (0000ms, 1605ms total)
T0CA0 022:247 JLINK_ReadReg(R5)  returns 0x40011000 (0000ms, 1605ms total)
T0CA0 022:247 JLINK_ReadReg(R6)  returns 0x00000800 (0000ms, 1605ms total)
T0CA0 022:247 JLINK_ReadReg(R7)  returns 0x00000100 (0000ms, 1605ms total)
T0CA0 022:247 JLINK_ReadReg(R8)  returns 0x08080808 (0000ms, 1605ms total)
T0CA0 022:247 JLINK_ReadReg(R9)  returns 0x09090909 (0000ms, 1605ms total)
T0CA0 022:247 JLINK_ReadReg(R10)  returns 0x10101010 (0000ms, 1605ms total)
T0CA0 022:247 JLINK_ReadReg(R11)  returns 0x00000207 (0000ms, 1605ms total)
T0CA0 022:247 JLINK_ReadReg(R12)  returns 0x12121212 (0000ms, 1605ms total)
T0CA0 022:247 JLINK_ReadReg(R13)  returns 0x200008C0 (0000ms, 1605ms total)
T0CA0 022:247 JLINK_ReadReg(R14)  returns 0x0800467F (0000ms, 1605ms total)
T0CA0 022:247 JLINK_ReadReg(R15)  returns 0x0800468A (0001ms, 1605ms total)
T0CA0 022:248 JLINK_ReadReg(XPSR)  returns 0x01000000 (0000ms, 1606ms total)
T0CA0 022:248 JLINK_ReadReg(MSP)  returns 0x200042B0 (0000ms, 1606ms total)
T0CA0 022:248 JLINK_ReadReg(PSP)  returns 0x200008C0 (0000ms, 1606ms total)
T0CA0 022:248 JLINK_ReadReg(CFBP)  returns 0x02000000 (0000ms, 1606ms total)
T0CA0 022:248 JLINK_ReadMem (0x200008E4, 0x0004 Bytes, ...) >0x528 JTAG> -- Updating C cache (64 bytes @ 0x200008C0) -- Read from C cache (4 bytes @ 0x200008E4) -- Data:  87 55 00 08  returns 0x00 (0024ms, 1606ms total)
T0CA0 022:272 JLINK_ReadMem (0x200008EC, 0x0004 Bytes, ...) -- Read from C cache (4 bytes @ 0x200008EC) -- Data:  7D E6 00 08  returns 0x00 (0000ms, 1630ms total)
T0CA0 022:273 JLINK_ReadMem (0x200008F4, 0x0004 Bytes, ...) -- Read from C cache (4 bytes @ 0x200008F4) -- Data:  19 90 00 08  returns 0x00 (0000ms, 1630ms total)
T0CA0 022:273 JLINK_ReadMem (0x20000904, 0x0004 Bytes, ...) >0x528 JTAG> -- Updating C cache (64 bytes @ 0x20000900) -- Read from C cache (4 bytes @ 0x20000904) -- Data:  83 6F 00 08  returns 0x00 (0002ms, 1630ms total)
T0CA0 022:275 JLINK_ReadMem (0x2000090C, 0x0004 Bytes, ...) -- Read from C cache (4 bytes @ 0x2000090C) -- Data:  DB 02 00 08  returns 0x00 (0000ms, 1632ms total)
T0CA0 022:275 JLINK_ReadMem (0x20000914, 0x0004 Bytes, ...) -- Read from C cache (4 bytes @ 0x20000914) -- Data:  FE FF FF FF  returns 0x00 (0001ms, 1632ms total)
T1634 022:302 JLINK_ReadMem (0x0800468A, 0x0002 Bytes, ...) >0x528 JTAG> -- Updating C cache (64 bytes @ 0x08004680) -- Read from C cache (2 bytes @ 0x0800468A) -- Data:  80 B2  returns 0x00 (0004ms, 1633ms total)
T1634 022:306 JLINK_ReadMem (0x0800468C, 0x003C Bytes, ...) >0x528 JTAG> -- Updating C cache (64 bytes @ 0x080046C0) -- Read from C cache (60 bytes @ 0x0800468C) -- Data:  A0 F5 13 41 4F F4 88 78 25 39 01 D0 C9 1E 7E D1 ...  returns 0x00 (0002ms, 1637ms total)
T1634 023:753 JLINK_ReadMem (0x20000080, 0x0002 Bytes, ...) >0x528 JTAG> -- Updating C cache (64 bytes @ 0x20000080) -- Read from C cache (2 bytes @ 0x20000080) -- Data:  00 00  returns 0x00 (0018ms, 1639ms total)
T1634 254:847 JLINK_WriteU32(0xE000EDFC, 0x00000000) >0x198 JTAG>  returns 0x00 (0002ms, 1657ms total)
T1634 254:850 JLINK_Close() >0x198 JTAG> >0x198 JTAG> >0x198 JTAG> >0x198 JTAG> >0x198 JTAG> >0x198 JTAG> >0x198 JTAG> >0x198 JTAG> (0072ms, 1659ms total)
